<Qucs Dataset 0.0.22>
<indep frequency 203>
1.000000000000e+05
1.023059729843e+05
1.046651210825e+05
1.070786704986e+05
1.095478757122e+05
1.120740201310e+05
1.146584167576e+05
1.173024088722e+05
1.200073707306e+05
1.227747082788e+05
1.256058598832e+05
1.285022970787e+05
1.314655253335e+05
1.344970848313e+05
1.375985512721e+05
1.407715366912e+05
1.440176902968e+05
1.473386993276e+05
1.507362899294e+05
1.542122280526e+05
1.577683203700e+05
1.614064152154e+05
1.651284035451e+05
1.689362199202e+05
1.728318435122e+05
1.768172991317e+05
1.808946582812e+05
1.850660402311e+05
1.893336131219e+05
1.936995950906e+05
1.981662554239e+05
2.027359157379e+05
2.074109511842e+05
2.121937916849e+05
2.170869231954e+05
2.220928889966e+05
2.272142910168e+05
2.324537911840e+05
2.378141128096e+05
2.432980420037e+05
2.489084291236e+05
2.546481902547e+05
2.605203087268e+05
2.665278366646e+05
2.726738965735e+05
2.789616829636e+05
2.853944640092e+05
2.919755832478e+05
2.987084613181e+05
3.055965977378e+05
3.126435727224e+05
3.198530490464e+05
3.272287739467e+05
3.347745810706e+05
3.424943924682e+05
3.503922206311e+05
3.584721705778e+05
3.667384419873e+05
3.751953313824e+05
3.838472343623e+05
3.926986478875e+05
4.017541726173e+05
4.110185153009e+05
4.204964912240e+05
4.301930267114e+05
4.401131616875e+05
4.502620522961e+05
4.606449735804e+05
4.712673222245e+05
4.821346193586e+05
4.932525134287e+05
5.046267831325e+05
5.162633404228e+05
5.281682335806e+05
5.403476503584e+05
5.528079211966e+05
5.655555225142e+05
5.785970800744e+05
5.919393724285e+05
6.055893344399e+05
6.195540608876e+05
6.338408101545e+05
6.484570079998e+05
6.634102514187e+05
6.787083125912e+05
6.943591429214e+05
7.103708771709e+05
7.267518376864e+05
7.435105387260e+05
7.606556908841e+05
7.781962056191e+05
7.961411998851e+05
8.145000008709e+05
8.332821508477e+05
8.524974121289e+05
8.721557721440e+05
8.922674486302e+05
9.128428949429e+05
9.338928054889e+05
9.554281212854e+05
9.774600356462e+05
1.000000000000e+06
1.023059729843e+06
1.046651210825e+06
1.070786704986e+06
1.095478757122e+06
1.120740201310e+06
1.146584167576e+06
1.173024088722e+06
1.200073707306e+06
1.227747082788e+06
1.256058598832e+06
1.285022970787e+06
1.314655253335e+06
1.344970848313e+06
1.375985512721e+06
1.407715366912e+06
1.440176902968e+06
1.473386993276e+06
1.507362899294e+06
1.542122280526e+06
1.577683203700e+06
1.614064152154e+06
1.651284035451e+06
1.689362199202e+06
1.728318435122e+06
1.768172991317e+06
1.808946582812e+06
1.850660402311e+06
1.893336131219e+06
1.936995950906e+06
1.981662554239e+06
2.027359157379e+06
2.074109511842e+06
2.121937916849e+06
2.170869231954e+06
2.220928889966e+06
2.272142910168e+06
2.324537911840e+06
2.378141128096e+06
2.432980420037e+06
2.489084291236e+06
2.546481902547e+06
2.605203087268e+06
2.665278366646e+06
2.726738965735e+06
2.789616829636e+06
2.853944640092e+06
2.919755832478e+06
2.987084613181e+06
3.055965977378e+06
3.126435727224e+06
3.198530490464e+06
3.272287739467e+06
3.347745810706e+06
3.424943924682e+06
3.503922206311e+06
3.584721705778e+06
3.667384419873e+06
3.751953313824e+06
3.838472343623e+06
3.926986478875e+06
4.017541726173e+06
4.110185153009e+06
4.204964912240e+06
4.301930267114e+06
4.401131616875e+06
4.502620522961e+06
4.606449735804e+06
4.712673222245e+06
4.821346193586e+06
4.932525134287e+06
5.046267831325e+06
5.162633404228e+06
5.281682335806e+06
5.403476503584e+06
5.528079211967e+06
5.655555225142e+06
5.785970800744e+06
5.919393724285e+06
6.055893344399e+06
6.195540608876e+06
6.338408101545e+06
6.484570079998e+06
6.634102514187e+06
6.787083125912e+06
6.943591429214e+06
7.103708771709e+06
7.267518376864e+06
7.435105387260e+06
7.606556908841e+06
7.781962056191e+06
7.961411998851e+06
8.145000008709e+06
8.332821508477e+06
8.524974121289e+06
8.721557721440e+06
8.922674486302e+06
9.128428949429e+06
9.338928054889e+06
9.554281212854e+06
9.774600356462e+06
1.000000000000e+07
</indep>
<dep ac.v(ns11) frequency>
-2.215242257086e-02-j5.603461866486e-02
-2.316825937893e-02-j5.715328987704e-02
-2.422980432304e-02-j5.828557671948e-02
-2.533902897585e-02-j5.943094304510e-02
-2.649798151407e-02-j6.058878165656e-02
-2.770878882200e-02-j6.175840869853e-02
-2.897365855276e-02-j6.293905766264e-02
-3.029488113163e-02-j6.412987298112e-02
-3.167483168436e-02-j6.532990318354e-02
-3.311597187063e-02-j6.653809358977e-02
-3.462085160089e-02-j6.775327851111e-02
-3.619211061166e-02-j6.897417293012e-02
-3.783247987186e-02-j7.019936362828e-02
-3.954478278907e-02-j7.142729972942e-02
-4.133193618124e-02-j7.265628262533e-02
-4.319695097540e-02-j7.388445524888e-02
-4.514293259045e-02-j7.510979065856e-02
-4.717308095641e-02-j7.633007989734e-02
-4.929069011708e-02-j7.754291908747e-02
-5.149914735761e-02-j7.874569572228e-02
-5.380193179168e-02-j7.993557411479e-02
-5.620261233637e-02-j8.110947996279e-02
-5.870484499513e-02-j8.226408398965e-02
-6.131236936078e-02-j8.339578462011e-02
-6.402900424162e-02-j8.450068965073e-02
-6.685864230357e-02-j8.557459687576e-02
-6.980524361073e-02-j8.661297363051e-02
-7.287282793469e-02-j8.761093521650e-02
-7.606546569037e-02-j8.856322217567e-02
-7.938726734232e-02-j8.946417638475e-02
-8.284237111023e-02-j9.030771594604e-02
-8.643492878651e-02-j9.108730885691e-02
-9.016908946092e-02-j9.179594544824e-02
-9.404898092897e-02-j9.242610959163e-02
-9.807868854022e-02-j9.296974868651e-02
-1.022622312214e-01-j9.341824245232e-02
-1.066035343864e-01-j9.376237056738e-02
-1.111063994203e-01-j9.399227921576e-02
-1.157744694007e-01-j9.409744662635e-02
-1.206111906895e-01-j9.406664771587e-02
-1.256197700052e-01-j9.388791797875e-02
-1.308031265511e-01-j9.354851680427e-02
-1.361638387510e-01-j9.303489044368e-02
-1.417040851087e-01-j9.233263489986e-02
-1.474255786829e-01-j9.142645906866e-02
-1.533294946362e-01-j9.030014852668e-02
-1.594163902920e-01-j8.893653043466e-02
-1.656861171060e-01-j8.731744011096e-02
-1.721377239409e-01-j8.542368992608e-02
-1.787693510119e-01-j8.323504127836e-02
-1.855781138665e-01-j8.073018053414e-02
-1.925599767568e-01-j7.788669995380e-02
-1.997096147776e-01-j7.468108477906e-02
-2.070202641656e-01-j7.108870782826e-02
-2.144835602006e-01-j6.708383313581e-02
-2.220893622160e-01-j6.263963037945e-02
-2.298255653159e-01-j5.772820206579e-02
-2.376778985238e-01-j5.232062568952e-02
-2.456297092528e-01-j4.638701334414e-02
-2.536617341946e-01-j3.989659153984e-02
-2.617518569938e-01-j3.281780427474e-02
-2.698748533976e-01-j2.511844270348e-02
-2.780021249740e-01-j1.676580504664e-02
-2.861014229739e-01-j7.726890676424e-03
-2.941365644886e-01+j2.031367412754e-03
-3.020671437336e-01+j1.254182730066e-02
-3.098482420837e-01+j2.383681536853e-02
-3.174301413993e-01+j3.594775130816e-02
-3.247580462276e-01+j4.890471615269e-02
-3.317718216380e-01+j6.273595869242e-02
-3.384057547565e-01+j7.746733593619e-02
-3.445883494903e-01+j9.312168379152e-02
-3.502421654641e-01+j1.097181149163e-01
-3.552837137970e-01+j1.272712417914e-01
-3.596234239868e-01+j1.457903245363e-01
-3.631656977832e-01+j1.652783448913e-01
-3.658090674396e-01+j1.857310101788e-01
-3.674464770346e-01+j2.071356939691e-01
-3.679657065309e-01+j2.294703236579e-01
-3.672499587299e-01+j2.527022292076e-01
-3.651786291261e-01+j2.767869719093e-01
-3.616282776679e-01+j3.016671771131e-01
-3.564738193846e-01+j3.272714003488e-01
-3.495899475501e-01+j3.535130619395e-01
-3.408527983125e-01+j3.802894908614e-01
-3.301418593910e-01+j4.074811238924e-01
-3.173421174081e-01+j4.349509106397e-01
-3.023464286967e-01+j4.625439783650e-01
-2.850580870916e-01+j4.900876121120e-01
-2.653935495564e-01+j5.173916049527e-01
-2.432852669222e-01+j5.442490296443e-01
-2.186845531625e-01+j5.704374761849e-01
-1.915644132771e-01+j5.957207893114e-01
-1.619222379956e-01+j6.198513257578e-01
-1.297822641986e-01+j6.425727332053e-01
-9.519769433321e-02+j6.636232317425e-01
-5.825236722017e-02+j6.827393551002e-01
-1.906187741747e-02+j6.996600840945e-01
2.222594869580e-02+j7.141312800608e-01
6.543129454495e-02+j7.259103033030e-01
1.103433636418e-01+j7.347706825315e-01
1.567221808090e-01+j7.405066876674e-01
2.043011742289e-01+j7.429376517614e-01
2.527904939622e-01+j7.419118891919e-01
3.018809887480e-01+j7.373100672582e-01
3.512487318219e-01+j7.290479065855e-01
4.005599604358e-01+j7.170781114938e-01
4.494762746505e-01+j7.013914630985e-01
4.976599301795e-01+j6.820170433119e-01
5.447790583006e-01+j6.590215946932e-01
5.905126530518e-01+j6.325080567657e-01
6.345551813305e-01+j6.026133516385e-01
6.766206937042e-01+j5.695055186035e-01
7.164463408657e-01+j5.333803174083e-01
7.537952306215e-01+j4.944574323714e-01
7.884585909530e-01+j4.529764142878e-01
8.202572340710e-01+j4.091924946570e-01
8.490423428455e-01+j3.633723980975e-01
8.746956233278e-01+j3.157902652032e-01
8.971288845259e-01+j2.667237809977e-01
9.162831188666e-01+j2.164505850561e-01
9.321271639912e-01+j1.652450196585e-01
9.446560291091e-01+j1.133752532175e-01
9.538889677543e-01+j6.110079859800e-02
9.598673742298e-01+j8.670430491863e-03
9.626525741259e-01-j4.367950690089e-02
9.623235708626e-01-j9.572642083934e-02
9.589748009598e-01-j1.472624461638e-01
9.527139412976e-01-j1.980951081648e-01
9.436598024678e-01-j2.480477066998e-01
9.319403338122e-01-j2.969594571340e-01
9.176907581054e-01-j3.446854232882e-01
9.010518472272e-01-j3.910962760660e-01
8.821683446069e-01-j4.360779091319e-01
8.611875357071e-01-j4.795309401995e-01
8.382579642719e-01-j5.213701234136e-01
8.135282893980e-01-j5.615236951454e-01
7.871462765896e-01-j5.999326724269e-01
7.592579147030e-01-j6.365501203174e-01
7.300066499594e-01-j6.713404018011e-01
6.995327278963e-01-j7.042784213955e-01
6.679726341389e-01-j7.353488715163e-01
6.354586251170e-01-j7.645454888089e-01
6.021183402599e-01-j7.918703260917e-01
5.680744877114e-01-j8.173330442483e-01
5.334445961703e-01-j8.409502273326e-01
4.983408260518e-01-j8.627447232694e-01
4.628698337405e-01-j8.827450118371e-01
4.271326832647e-01-j9.009846010549e-01
3.912248002407e-01-j9.175014526654e-01
3.552359634116e-01-j9.323374370572e-01
3.192503295386e-01-j9.455378177150e-01
2.833464877872e-01-j9.571507650737e-01
2.475975400952e-01-j9.672268995026e-01
2.120712043112e-01-j9.758188630166e-01
1.768299371632e-01-j9.829809192154e-01
1.419310743514e-01-j9.887685808723e-01
1.074269852734e-01-j9.932382645227e-01
7.336524007850e-02-j9.964469713500e-01
3.978878692105e-02-j9.984519936079e-01
6.736137439643e-03-j9.993106457770e-01
-2.575844136240e-02-j9.990800196071e-01
-5.766473052329e-02-j9.978167621591e-01
-8.895635937171e-02-j9.955768759241e-01
-1.196106040490e-01-j9.924155400681e-01
-1.496081856135e-01-j9.883869518215e-01
-1.789330689195e-01-j9.835441870122e-01
-2.075722633475e-01-j9.779390787240e-01
-2.355156263541e-01-j9.716221130505e-01
-2.627556707013e-01-j9.646423409101e-01
-2.892873761212e-01-j9.570473048871e-01
-3.151080060750e-01-j9.488829800692e-01
-3.402169301663e-01-j9.401937278661e-01
-3.646154526810e-01-j9.310222618070e-01
-3.883066476393e-01-j9.214096243404e-01
-4.112952006643e-01-j9.113951736826e-01
-4.335872578975e-01-j9.010165797960e-01
-4.551902821202e-01-j8.903098286070e-01
-4.761129161783e-01-j8.793092336173e-01
-4.963648537479e-01-j8.680474540944e-01
-5.159567174260e-01-j8.565555190764e-01
-5.348999440868e-01-j8.448628564631e-01
-5.532066773989e-01-j8.329973265128e-01
-5.708896673639e-01-j8.209852591072e-01
-5.879621767078e-01-j8.088514941919e-01
-6.044378939258e-01-j7.966194248436e-01
-6.203308527630e-01-j7.843110424576e-01
-6.356553578945e-01-j7.719469835938e-01
-6.504259165532e-01-j7.595465780567e-01
-6.646571758452e-01-j7.471278978277e-01
-6.783638654847e-01-j7.347078065034e-01
-6.915607456753e-01-j7.223020089313e-01
-7.042625598647e-01-j7.099251007650e-01
-7.164839920981e-01-j6.975906176979e-01
-7.282396286998e-01-j6.853110841593e-01
-7.395439240172e-01-j6.730980612878e-01
-7.504111699639e-01-j6.609621940219e-01
-7.608554691110e-01-j6.489132571706e-01
-7.708907110769e-01-j6.369602003506e-01
-7.805305519818e-01-j6.251111916947e-01
-7.897883967359e-01-j6.133736602559e-01
-7.986773839450e-01-j6.017543370470e-01
-8.072103732244e-01-j5.902592946710e-01
</dep>
<dep ac.v(ns12) frequency>
9.810287077814e-01-j1.842608645212e-01
9.801431701964e-01-j1.884571546293e-01
9.792162802420e-01-j1.927464257465e-01
9.782461059136e-01-j1.971305478211e-01
9.772306249557e-01-j2.016114137686e-01
9.761677206622e-01-j2.061909384870e-01
9.750551774857e-01-j2.108710577320e-01
9.738906764462e-01-j2.156537268398e-01
9.726717903330e-01-j2.205409192829e-01
9.713959786897e-01-j2.255346250447e-01
9.700605825735e-01-j2.306368487963e-01
9.686628190818e-01-j2.358496078578e-01
9.671997756351e-01-j2.411749299251e-01
9.656684040082e-01-j2.466148505418e-01
9.640655141005e-01-j2.521714102923e-01
9.623877674357e-01-j2.578466516927e-01
9.606316703831e-01-j2.636426157534e-01
9.587935670902e-01-j2.695613381819e-01
9.568696321186e-01-j2.756048451976e-01
9.548558627754e-01-j2.817751489221e-01
9.527480711315e-01-j2.880742423084e-01
9.505418757200e-01-j2.945040935698e-01
9.482326929084e-01-j3.010666400636e-01
9.458157279392e-01-j3.077637815823e-01
9.432859656355e-01-j3.145973730016e-01
9.406381607680e-01-j3.215692162287e-01
9.378668280839e-01-j3.286810513905e-01
9.349662319994e-01-j3.359345471964e-01
9.319303759598e-01-j3.433312904041e-01
9.287529914752e-01-j3.508727743122e-01
9.254275268438e-01-j3.585603861963e-01
9.219471355784e-01-j3.663953935978e-01
9.183046645579e-01-j3.743789293699e-01
9.144926419314e-01-j3.825119753751e-01
9.105032648089e-01-j3.907953447212e-01
9.063283867838e-01-j3.992296624158e-01
9.019595053376e-01-j4.078153443081e-01
8.973877491927e-01-j4.165525741782e-01
8.926038656899e-01-j4.254412788258e-01
8.875982082809e-01-j4.344811009981e-01
8.823607242477e-01-j4.436713699875e-01
8.768809427735e-01-j4.530110697200e-01
8.711479635182e-01-j4.624988041441e-01
8.651504458731e-01-j4.721327597208e-01
8.588765990985e-01-j4.819106648055e-01
8.523141735828e-01-j4.918297457053e-01
8.454504534951e-01-j5.018866791870e-01
8.382722511468e-01-j5.120775412065e-01
8.307659034232e-01-j5.223977516273e-01
8.229172706999e-01-j5.328420146966e-01
8.147117387126e-01-j5.434042550519e-01
8.061342239185e-01-j5.540775490389e-01
7.971691829546e-01-j5.648540511398e-01
7.878006268777e-01-j5.757249153331e-01
7.780121409564e-01-j5.866802112394e-01
7.677869108791e-01-j5.977088349516e-01
7.571077563377e-01-j6.087984145075e-01
7.459571730595e-01-j6.199352100355e-01
7.343173844658e-01-j6.311040086996e-01
7.221704042564e-01-j6.422880146827e-01
7.094981113369e-01-j6.534687345943e-01
6.962823386260e-01-j6.646258588539e-01
6.825049773942e-01-j6.757371398134e-01
6.681480988956e-01-j6.867782676199e-01
6.531940951441e-01-j6.977227451117e-01
6.376258407637e-01-j7.085417633668e-01
6.214268778765e-01-j7.192040799129e-01
6.045816259994e-01-j7.296759020353e-01
5.870756188610e-01-j7.399207781158e-01
5.688957699279e-01-j7.498995004747e-01
5.500306682161e-01-j7.595700237848e-01
5.304709056442e-01-j7.688874037650e-01
5.102094367337e-01-j7.778037615351e-01
4.892419708613e-01-j7.862682797056e-01
4.675673964888e-01-j7.942272369620e-01
4.451882358160e-01-j8.016240885569e-01
4.221111271083e-01-j8.083996006978e-01
3.983473305096e-01-j8.144920472753e-01
3.739132514800e-01-j8.198374776413e-01
3.488309740703e-01-j8.243700641675e-01
3.231287941103e-01-j8.280225379950e-01
2.968417400534e-01-j8.307267206523e-01
2.700120667752e-01-j8.324141579784e-01
2.426897051391e-01-j8.330168609515e-01
2.149326477542e-01-j8.324681555184e-01
1.868072492061e-01-j8.307036402914e-01
1.583884173404e-01-j8.276622469975e-01
1.297596711264e-01-j8.232873938558e-01
1.010130404708e-01-j8.175282166952e-01
7.224878432969e-02-j8.103408567641e-01
4.357490579769e-02-j8.016897780405e-01
1.510644673878e-02-j7.915490807517e-01
-1.303544993536e-02-j7.799037721366e-01
-4.072471500637e-02-j7.667509506916e-01
-6.783176058198e-02-j7.521008567319e-01
-9.422510638962e-02-j7.359777405677e-01
-1.197731995124e-01-j7.184205003959e-01
-1.443463910593e-01-j6.994830455003e-01
-1.678190223810e-01-j6.792343467246e-01
-1.900715637799e-01-j6.577581454418e-01
-2.109927410318e-01-j6.351523041164e-01
-2.304815802170e-01-j6.115277955604e-01
-2.484492999656e-01-j5.870073433531e-01
-2.648209826595e-01-j5.617237416927e-01
-2.795369625159e-01-j5.358178981142e-01
-2.925538785835e-01-j5.094366559470e-01
-3.038453539814e-01-j4.827304641061e-01
-3.134022783662e-01-j4.558509689950e-01
-3.212326875868e-01-j4.289486064223e-01
-3.273612516189e-01-j4.021702702881e-01
-3.318283980123e-01-j3.756571295539e-01
-3.346891121825e-01-j3.495426561381e-01
-3.360114671137e-01-j3.239509146453e-01
-3.358749428496e-01-j2.989951511768e-01
-3.343686002890e-01-j2.747767038994e-01
-3.315891743373e-01-j2.513842435667e-01
-3.276391487177e-01-j2.288933386932e-01
-3.226248692473e-01-j2.073663282684e-01
-3.166547448119e-01-j1.868524752903e-01
-3.098375763369e-01-j1.673883672461e-01
-3.022810444708e-01-j1.489985250350e-01
-2.940903771067e-01-j1.316961795991e-01
-2.853672087927e-01-j1.154841754162e-01
-2.762086359311e-01-j1.003559616787e-01
-2.667064646941e-01-j8.629663501343e-02
-2.569466429364e-01-j7.328400159167e-02
-2.470088630840e-01-j6.128963104415e-02
-2.369663199721e-01-j5.027987940288e-02
-2.268856057672e-01-j4.021686305613e-02
-2.168267232815e-01-j3.105937021924e-02
-2.068431989952e-01-j2.276370053757e-02
-1.969822777564e-01-j1.528442705841e-02
-1.872851822619e-01-j8.575077890574e-03
-1.777874218818e-01-j2.588737406708e-03
-1.685191370339e-01+j2.721431142620e-03
-1.595054670474e-01+j7.401738201397e-03
-1.507669311784e-01+j1.149759115992e-02
-1.423198141025e-01+j1.505318304041e-02
-1.341765487572e-01+j1.811124093969e-02
-1.263460908198e-01+j2.071282836973e-02
-1.188342803652e-01+j2.289719564916e-02
-1.116441873500e-01+j2.470167265960e-02
-1.047764385145e-01+j2.616159854796e-02
-9.822952409726e-02+j2.731028329631e-02
-9.200008342040e-02+j2.817899646618e-02
-8.608316894788e-02+j2.879697883278e-02
-8.047248885569e-02+j2.919147303876e-02
-7.516062849471e-02+j2.938776980466e-02
-7.013925138986e-02+j2.940926662501e-02
-6.539928061361e-02+j2.927753624862e-02
-6.093106151073e-02+j2.901240258550e-02
-5.672450684314e-02+j2.863202199872e-02
-5.276922547833e-02+j2.815296822692e-02
-4.905463576962e-02+j2.759031944258e-02
-4.557006477739e-02+j2.695774618286e-02
-4.230483446298e-02+j2.626759909643e-02
-3.924833595612e-02+j2.553099563195e-02
-3.639009295495e-02+j2.475790495405e-02
-3.371981526952e-02+j2.395723051324e-02
-3.122744346584e-02+j2.313688981788e-02
-2.890318551123e-02+j2.230389106202e-02
-2.673754626400e-02+j2.146440635437e-02
-2.472135059205e-02+j2.062384137100e-02
-2.284576084752e-02+j1.978690132154e-02
-2.110228936845e-02+j1.895765317417e-02
-1.948280662384e-02+j1.813958413253e-02
-1.797954556613e-02+j1.733565639637e-02
-1.658510270553e-02+j1.654835827044e-02
-1.529243637305e-02+j1.577975171218e-02
-1.409486259472e-02+j1.503151642961e-02
-1.298604895766e-02+j1.430499065717e-02
-1.196000680955e-02+j1.360120874956e-02
-1.101108209663e-02+j1.292093574216e-02
-1.013394511188e-02+j1.226469903296e-02
-9.323579393763e-03+j1.163281734364e-02
-8.575269987229e-03+j1.102542711913e-02
-7.884591252777e-03+j1.044250652399e-02
-7.247394385032e-03+j9.883897192014e-03
-6.659794780784e-03+j9.349323881938e-03
-6.118159376573e-03+j8.838412188010e-03
-5.619094058100e-03+j8.350704448761e-03
-5.159431227702e-03+j7.885673991763e-03
-4.736217601764e-03+j7.442737845900e-03
-4.346702297148e-03+j7.021268046178e-03
-3.988325254313e-03+j6.620601649410e-03
-3.658706034775e-03+j6.240049572345e-03
-3.355633021706e-03+j5.878904357001e-03
-3.077053044752e-03+j5.536446961275e-03
-2.821061443419e-03+j5.211952666258e-03
-2.585892577595e-03+j4.904696185333e-03
-2.369910788785e-03+j4.613956053847e-03
-2.171601811431e-03+j4.339018372244e-03
-1.989564630106e-03+j4.079179969802e-03
-1.822503775427e-03+j3.833751050702e-03
-1.669222049093e-03+j3.602057379018e-03
-1.528613666483e-03+j3.383442054374e-03
-1.399657803694e-03+j3.177266925441e-03
-1.281412534725e-03+j2.982913684227e-03
-1.173009143594e-03+j2.799784680094e-03
-1.073646795608e-03+j2.627303488782e-03
-9.825875515997e-04+j2.464915268263e-03
