<Qucs Dataset 0.0.22>
<indep time 83>
0.000000000000e+00
5.000000000000e-12
1.000000000000e-11
2.000000000000e-11
4.000000000000e-11
8.000000000000e-11
1.600000000000e-10
3.200000000000e-10
6.400000000000e-10
1.090619681423e-09
1.677361010376e-09
2.338532111609e-09
3.140290608423e-09
3.834595493907e-09
4.460498679225e-09
5.135171809257e-09
5.947976203713e-09
6.577451342197e-09
7.235491090603e-09
7.908361600658e-09
8.570335531968e-09
9.180949566464e-09
9.831151183394e-09
1.057132271838e-08
1.123274423892e-08
1.186048488849e-08
1.252007014501e-08
1.339843715323e-08
1.405107398193e-08
1.472534731020e-08
1.537744791039e-08
1.603736210871e-08
1.664019952307e-08
1.728925991589e-08
1.801238959128e-08
1.867711626062e-08
1.929816942462e-08
1.995584148331e-08
2.077807392902e-08
2.143391849397e-08
2.211663432397e-08
2.276188468948e-08
2.344893029508e-08
2.405085484339e-08
2.469195849453e-08
2.539373778481e-08
2.606859801182e-08
2.667331323122e-08
2.732678638801e-08
2.805685475012e-08
2.871714402003e-08
2.934414309733e-08
3.000281018858e-08
3.086643498964e-08
3.152021948965e-08
3.219700029849e-08
3.284732535239e-08
3.351222087671e-08
3.410639670025e-08
3.475604240296e-08
3.546941206628e-08
3.613752714236e-08
3.675321626034e-08
3.740943419605e-08
3.819583752054e-08
3.885344798688e-08
3.954194483724e-08
4.018126974537e-08
4.093935463530e-08
4.155837091672e-08
4.220771524019e-08
4.289254916431e-08
4.356118988966e-08
4.416655577450e-08
4.481827714623e-08
4.554650855524e-08
4.620772960361e-08
4.683338049861e-08
4.749181203062e-08
4.834534926064e-08
4.899967102509e-08
4.967788168232e-08
5.000000000000e-08
</indep>
<dep tran.v(in) time>
0.000000000000e+00
6.283143965559e-03
1.256603988335e-02
2.513009544334e-02
5.024431817977e-02
1.003617148512e-01
1.997099805144e-01
3.913736668372e-01
7.203090248879e-01
9.800102723642e-01
8.592279489523e-01
2.015170832507e-01
-7.205622916263e-01
-9.943548542369e-01
-6.272034078268e-01
1.690462432965e-01
9.288372740676e-01
9.165268800549e-01
3.263047476145e-01
-4.909347003604e-01
-9.746213481084e-01
-8.569121855064e-01
-2.105931532435e-01
6.578385474085e-01
9.997649063206e-01
7.198862282272e-01
-2.521821432567e-02
-9.039891068126e-01
-9.292788163564e-01
-3.383272472998e-01
4.567292037351e-01
9.645116802384e-01
8.821731800104e-01
2.617392148064e-01
-6.003092683490e-01
-9.958087128444e-01
-7.719775131220e-01
-5.546275423109e-02
8.292456213660e-01
9.734107253914e-01
4.633320527363e-01
-3.231857874250e-01
-9.292808016229e-01
-9.293804998373e-01
-3.775012245784e-01
4.748428807861e-01
9.741302425189e-01
8.618190853364e-01
2.159519152622e-01
-6.440374089251e-01
-9.991477698660e-01
-7.339871054033e-01
3.531379783554e-03
8.860686604777e-01
9.428987021287e-01
3.716267549947e-01
-4.227357131337e-01
-9.556898194007e-01
-9.013753021814e-01
-3.017866812149e-01
5.562618042723e-01
9.900284630132e-01
8.066347579959e-01
1.135628240716e-01
-7.671685269878e-01
-9.915623378043e-01
-5.443458365229e-01
2.258254387290e-01
9.247689059082e-01
9.258527388576e-01
3.590929708000e-01
-4.735278213225e-01
-9.719842739534e-01
-8.660950709767e-01
-2.263800862261e-01
6.340372548303e-01
9.985895416880e-01
7.431051650430e-01
1.028912423258e-02
-8.734762217855e-01
-9.511841832852e-01
-3.938218944620e-01
-2.449293598295e-15
</dep>
<dep tran.v(out) time>
0.000000000000e+00
3.125942271422e-05
9.362151455820e-05
2.802329190237e-04
1.020965075311e-03
3.933986700417e-03
1.517259139137e-02
5.670877395203e-02
1.944005179273e-01
4.355623536912e-01
6.551560963610e-01
5.931508407517e-01
1.051443403592e-01
-3.909687083753e-01
-5.910984635312e-01
-4.084629977727e-01
1.448515482750e-01
5.172642573048e-01
5.688329850457e-01
2.409919921708e-01
-2.433180593812e-01
-5.578851403878e-01
-5.460437985270e-01
-1.302411933187e-01
3.464451351210e-01
5.917279152231e-01
4.705070457025e-01
-1.002126652171e-01
-5.019462157551e-01
-5.684372010171e-01
-2.597888538508e-01
2.217205669485e-01
5.467227415140e-01
5.590879083026e-01
1.722476569087e-01
-3.118460503047e-01
-5.829368035273e-01
-4.991875122923e-01
1.711500549265e-02
4.538170686073e-01
5.884682459342e-01
3.355661836696e-01
-1.562751930304e-01
-5.139497132253e-01
-5.816701034305e-01
-2.542116665720e-01
2.396343309168e-01
5.546036759353e-01
5.468618181927e-01
1.399032546478e-01
-3.373872385817e-01
-5.899914358188e-01
-4.786240748280e-01
7.835667907944e-02
4.903320102259e-01
5.747434840399e-01
2.801465593033e-01
-2.035667203742e-01
-5.356623103149e-01
-5.679864720284e-01
-2.024249774377e-01
2.861544731492e-01
5.743468268633e-01
5.178969330325e-01
4.109968485141e-02
-4.144279424393e-01
-5.954968822303e-01
-3.841572501637e-01
1.432724188185e-01
5.129490091765e-01
5.764406234472e-01
2.531800119442e-01
-2.358709034334e-01
-5.533442140119e-01
-5.498509765794e-01
-1.475001153201e-01
3.314482849020e-01
5.885087422471e-01
4.835871499240e-01
-6.390232406682e-02
-4.821973732099e-01
-5.785806283769e-01
-4.726921431387e-01
</dep>
<indep frequency 307>
1.000000000000e+03
1.046183444392e+03
1.094499799320e+03
1.145047569938e+03
1.197929810711e+03
1.253254335509e+03
1.311133937422e+03
1.371686618711e+03
1.435035831389e+03
1.501310728908e+03
1.570646429472e+03
1.643184291506e+03
1.719072201859e+03
1.798464877299e+03
1.881524179950e+03
1.968419447287e+03
2.059327837370e+03
2.154434690032e+03
2.253933904735e+03
2.358028335887e+03
2.466930206412e+03
2.580861540418e+03
2.700054615853e+03
2.824752438059e+03
2.955209235203e+03
3.091690976583e+03
3.234475914877e+03
3.383855153428e+03
3.540133239737e+03
3.703628786354e+03
3.874675120456e+03
4.053620963418e+03
4.240831141768e+03
4.436687330979e+03
4.641588833613e+03
4.855953393400e+03
5.080218046913e+03
5.314840014581e+03
5.560297632846e+03
5.817091329374e+03
6.085744643307e+03
6.366805292624e+03
6.660846290809e+03
6.968467115083e+03
7.290294928589e+03
7.626985859023e+03
7.979226336321e+03
8.347734492114e+03
8.733261623828e+03
9.136593726392e+03
9.558553094685e+03
1.000000000000e+04
1.046183444392e+04
1.094499799320e+04
1.145047569938e+04
1.197929810711e+04
1.253254335509e+04
1.311133937422e+04
1.371686618711e+04
1.435035831389e+04
1.501310728908e+04
1.570646429472e+04
1.643184291506e+04
1.719072201859e+04
1.798464877299e+04
1.881524179950e+04
1.968419447287e+04
2.059327837370e+04
2.154434690032e+04
2.253933904735e+04
2.358028335887e+04
2.466930206412e+04
2.580861540418e+04
2.700054615853e+04
2.824752438059e+04
2.955209235203e+04
3.091690976583e+04
3.234475914877e+04
3.383855153428e+04
3.540133239737e+04
3.703628786354e+04
3.874675120456e+04
4.053620963418e+04
4.240831141768e+04
4.436687330979e+04
4.641588833613e+04
4.855953393400e+04
5.080218046913e+04
5.314840014581e+04
5.560297632846e+04
5.817091329374e+04
6.085744643307e+04
6.366805292624e+04
6.660846290809e+04
6.968467115083e+04
7.290294928589e+04
7.626985859023e+04
7.979226336321e+04
8.347734492114e+04
8.733261623828e+04
9.136593726392e+04
9.558553094685e+04
1.000000000000e+05
1.046183444392e+05
1.094499799320e+05
1.145047569938e+05
1.197929810711e+05
1.253254335509e+05
1.311133937422e+05
1.371686618711e+05
1.435035831389e+05
1.501310728908e+05
1.570646429472e+05
1.643184291506e+05
1.719072201859e+05
1.798464877299e+05
1.881524179950e+05
1.968419447287e+05
2.059327837370e+05
2.154434690032e+05
2.253933904735e+05
2.358028335887e+05
2.466930206412e+05
2.580861540418e+05
2.700054615853e+05
2.824752438059e+05
2.955209235203e+05
3.091690976583e+05
3.234475914877e+05
3.383855153428e+05
3.540133239737e+05
3.703628786354e+05
3.874675120456e+05
4.053620963418e+05
4.240831141768e+05
4.436687330979e+05
4.641588833613e+05
4.855953393400e+05
5.080218046913e+05
5.314840014581e+05
5.560297632846e+05
5.817091329374e+05
6.085744643307e+05
6.366805292624e+05
6.660846290809e+05
6.968467115083e+05
7.290294928589e+05
7.626985859023e+05
7.979226336321e+05
8.347734492114e+05
8.733261623828e+05
9.136593726392e+05
9.558553094685e+05
1.000000000000e+06
1.046183444392e+06
1.094499799320e+06
1.145047569938e+06
1.197929810711e+06
1.253254335509e+06
1.311133937422e+06
1.371686618711e+06
1.435035831389e+06
1.501310728908e+06
1.570646429472e+06
1.643184291506e+06
1.719072201859e+06
1.798464877299e+06
1.881524179950e+06
1.968419447287e+06
2.059327837370e+06
2.154434690032e+06
2.253933904735e+06
2.358028335887e+06
2.466930206412e+06
2.580861540418e+06
2.700054615853e+06
2.824752438059e+06
2.955209235203e+06
3.091690976583e+06
3.234475914877e+06
3.383855153428e+06
3.540133239737e+06
3.703628786354e+06
3.874675120456e+06
4.053620963418e+06
4.240831141768e+06
4.436687330979e+06
4.641588833613e+06
4.855953393400e+06
5.080218046913e+06
5.314840014581e+06
5.560297632846e+06
5.817091329374e+06
6.085744643307e+06
6.366805292624e+06
6.660846290809e+06
6.968467115083e+06
7.290294928589e+06
7.626985859024e+06
7.979226336321e+06
8.347734492114e+06
8.733261623829e+06
9.136593726392e+06
9.558553094685e+06
1.000000000000e+07
1.046183444392e+07
1.094499799320e+07
1.145047569938e+07
1.197929810711e+07
1.253254335509e+07
1.311133937422e+07
1.371686618711e+07
1.435035831389e+07
1.501310728908e+07
1.570646429472e+07
1.643184291506e+07
1.719072201859e+07
1.798464877299e+07
1.881524179950e+07
1.968419447287e+07
2.059327837370e+07
2.154434690032e+07
2.253933904735e+07
2.358028335887e+07
2.466930206412e+07
2.580861540418e+07
2.700054615853e+07
2.824752438059e+07
2.955209235203e+07
3.091690976583e+07
3.234475914877e+07
3.383855153428e+07
3.540133239737e+07
3.703628786354e+07
3.874675120456e+07
4.053620963418e+07
4.240831141768e+07
4.436687330979e+07
4.641588833613e+07
4.855953393400e+07
5.080218046913e+07
5.314840014581e+07
5.560297632846e+07
5.817091329374e+07
6.085744643307e+07
6.366805292624e+07
6.660846290809e+07
6.968467115083e+07
7.290294928589e+07
7.626985859024e+07
7.979226336321e+07
8.347734492114e+07
8.733261623829e+07
9.136593726392e+07
9.558553094685e+07
1.000000000000e+08
1.046183444392e+08
1.094499799320e+08
1.145047569938e+08
1.197929810711e+08
1.253254335509e+08
1.311133937422e+08
1.371686618711e+08
1.435035831389e+08
1.501310728908e+08
1.570646429472e+08
1.643184291506e+08
1.719072201859e+08
1.798464877299e+08
1.881524179950e+08
1.968419447287e+08
2.059327837370e+08
2.154434690032e+08
2.253933904735e+08
2.358028335887e+08
2.466930206412e+08
2.580861540418e+08
2.700054615853e+08
2.824752438059e+08
2.955209235203e+08
3.091690976583e+08
3.234475914877e+08
3.383855153428e+08
3.540133239737e+08
3.703628786354e+08
3.874675120456e+08
4.053620963418e+08
4.240831141768e+08
4.436687330979e+08
4.641588833613e+08
4.855953393400e+08
5.080218046913e+08
5.314840014581e+08
5.560297632846e+08
5.817091329374e+08
6.085744643307e+08
6.366805292624e+08
6.660846290809e+08
6.968467115083e+08
7.290294928589e+08
7.626985859024e+08
7.979226336321e+08
8.347734492114e+08
8.733261623829e+08
9.136593726392e+08
9.558553094685e+08
1.000000000000e+09
</indep>
<dep ac.v(in) frequency>
1.000000000000e+00+j0.000000000000e+00
1.000000000000e+00+j0.000000000000e+00
1.000000000000e+00+j0.000000000000e+00
1.000000000000e+00+j0.000000000000e+00
1.000000000000e+00+j0.000000000000e+00
1.000000000000e+00+j0.000000000000e+00
1.000000000000e+00+j0.000000000000e+00
1.000000000000e+00+j0.000000000000e+00
1.000000000000e+00+j0.000000000000e+00
1.000000000000e+00+j0.000000000000e+00
1.000000000000e+00+j0.000000000000e+00
1.000000000000e+00+j0.000000000000e+00
1.000000000000e+00+j0.000000000000e+00
1.000000000000e+00+j0.000000000000e+00
1.000000000000e+00+j0.000000000000e+00
1.000000000000e+00+j0.000000000000e+00
1.000000000000e+00+j0.000000000000e+00
1.000000000000e+00+j0.000000000000e+00
1.000000000000e+00+j0.000000000000e+00
1.000000000000e+00+j0.000000000000e+00
1.000000000000e+00+j0.000000000000e+00
1.000000000000e+00+j0.000000000000e+00
1.000000000000e+00+j0.000000000000e+00
1.000000000000e+00+j0.000000000000e+00
1.000000000000e+00+j0.000000000000e+00
1.000000000000e+00+j0.000000000000e+00
1.000000000000e+00+j0.000000000000e+00
1.000000000000e+00+j0.000000000000e+00
1.000000000000e+00+j0.000000000000e+00
1.000000000000e+00+j0.000000000000e+00
1.000000000000e+00+j0.000000000000e+00
1.000000000000e+00+j0.000000000000e+00
1.000000000000e+00+j0.000000000000e+00
1.000000000000e+00+j0.000000000000e+00
1.000000000000e+00+j0.000000000000e+00
1.000000000000e+00+j0.000000000000e+00
1.000000000000e+00+j0.000000000000e+00
1.000000000000e+00+j0.000000000000e+00
1.000000000000e+00+j0.000000000000e+00
1.000000000000e+00+j0.000000000000e+00
1.000000000000e+00+j0.000000000000e+00
1.000000000000e+00+j0.000000000000e+00
1.000000000000e+00+j0.000000000000e+00
1.000000000000e+00+j0.000000000000e+00
1.000000000000e+00+j0.000000000000e+00
1.000000000000e+00+j0.000000000000e+00
1.000000000000e+00+j0.000000000000e+00
1.000000000000e+00+j0.000000000000e+00
1.000000000000e+00+j0.000000000000e+00
1.000000000000e+00+j0.000000000000e+00
1.000000000000e+00+j0.000000000000e+00
1.000000000000e+00+j0.000000000000e+00
1.000000000000e+00+j0.000000000000e+00
1.000000000000e+00+j0.000000000000e+00
1.000000000000e+00+j0.000000000000e+00
1.000000000000e+00+j0.000000000000e+00
1.000000000000e+00+j0.000000000000e+00
1.000000000000e+00+j0.000000000000e+00
1.000000000000e+00+j0.000000000000e+00
1.000000000000e+00+j0.000000000000e+00
1.000000000000e+00+j0.000000000000e+00
1.000000000000e+00+j0.000000000000e+00
1.000000000000e+00+j0.000000000000e+00
1.000000000000e+00+j0.000000000000e+00
1.000000000000e+00+j0.000000000000e+00
1.000000000000e+00+j0.000000000000e+00
1.000000000000e+00+j0.000000000000e+00
1.000000000000e+00+j0.000000000000e+00
1.000000000000e+00+j0.000000000000e+00
1.000000000000e+00+j0.000000000000e+00
1.000000000000e+00+j0.000000000000e+00
1.000000000000e+00+j0.000000000000e+00
1.000000000000e+00+j0.000000000000e+00
1.000000000000e+00+j0.000000000000e+00
1.000000000000e+00+j0.000000000000e+00
1.000000000000e+00+j0.000000000000e+00
1.000000000000e+00+j0.000000000000e+00
1.000000000000e+00+j0.000000000000e+00
1.000000000000e+00+j0.000000000000e+00
1.000000000000e+00+j0.000000000000e+00
1.000000000000e+00+j0.000000000000e+00
1.000000000000e+00+j0.000000000000e+00
1.000000000000e+00+j0.000000000000e+00
1.000000000000e+00+j0.000000000000e+00
1.000000000000e+00+j0.000000000000e+00
1.000000000000e+00+j0.000000000000e+00
1.000000000000e+00+j0.000000000000e+00
1.000000000000e+00+j0.000000000000e+00
1.000000000000e+00+j0.000000000000e+00
1.000000000000e+00+j0.000000000000e+00
1.000000000000e+00+j0.000000000000e+00
1.000000000000e+00+j0.000000000000e+00
1.000000000000e+00+j0.000000000000e+00
1.000000000000e+00+j0.000000000000e+00
1.000000000000e+00+j0.000000000000e+00
1.000000000000e+00+j0.000000000000e+00
1.000000000000e+00+j0.000000000000e+00
1.000000000000e+00+j0.000000000000e+00
1.000000000000e+00+j0.000000000000e+00
1.000000000000e+00+j0.000000000000e+00
1.000000000000e+00+j0.000000000000e+00
1.000000000000e+00+j0.000000000000e+00
1.000000000000e+00+j0.000000000000e+00
1.000000000000e+00+j0.000000000000e+00
1.000000000000e+00+j0.000000000000e+00
1.000000000000e+00+j0.000000000000e+00
1.000000000000e+00+j0.000000000000e+00
1.000000000000e+00+j0.000000000000e+00
1.000000000000e+00+j0.000000000000e+00
1.000000000000e+00+j0.000000000000e+00
1.000000000000e+00+j0.000000000000e+00
1.000000000000e+00+j0.000000000000e+00
1.000000000000e+00+j0.000000000000e+00
1.000000000000e+00+j0.000000000000e+00
1.000000000000e+00+j0.000000000000e+00
1.000000000000e+00+j0.000000000000e+00
1.000000000000e+00+j0.000000000000e+00
1.000000000000e+00+j0.000000000000e+00
1.000000000000e+00+j0.000000000000e+00
1.000000000000e+00+j0.000000000000e+00
1.000000000000e+00+j0.000000000000e+00
1.000000000000e+00+j0.000000000000e+00
1.000000000000e+00+j0.000000000000e+00
1.000000000000e+00+j0.000000000000e+00
1.000000000000e+00+j0.000000000000e+00
1.000000000000e+00+j0.000000000000e+00
1.000000000000e+00+j0.000000000000e+00
1.000000000000e+00+j0.000000000000e+00
1.000000000000e+00+j0.000000000000e+00
1.000000000000e+00+j0.000000000000e+00
1.000000000000e+00+j0.000000000000e+00
1.000000000000e+00+j0.000000000000e+00
1.000000000000e+00+j0.000000000000e+00
1.000000000000e+00+j0.000000000000e+00
1.000000000000e+00+j0.000000000000e+00
1.000000000000e+00+j0.000000000000e+00
1.000000000000e+00+j0.000000000000e+00
1.000000000000e+00+j0.000000000000e+00
1.000000000000e+00+j0.000000000000e+00
1.000000000000e+00+j0.000000000000e+00
1.000000000000e+00+j0.000000000000e+00
1.000000000000e+00+j0.000000000000e+00
1.000000000000e+00+j0.000000000000e+00
1.000000000000e+00+j0.000000000000e+00
1.000000000000e+00+j0.000000000000e+00
1.000000000000e+00+j0.000000000000e+00
1.000000000000e+00+j0.000000000000e+00
1.000000000000e+00+j0.000000000000e+00
1.000000000000e+00+j0.000000000000e+00
1.000000000000e+00+j0.000000000000e+00
1.000000000000e+00+j0.000000000000e+00
1.000000000000e+00+j0.000000000000e+00
1.000000000000e+00+j0.000000000000e+00
1.000000000000e+00+j0.000000000000e+00
1.000000000000e+00+j0.000000000000e+00
1.000000000000e+00+j0.000000000000e+00
1.000000000000e+00+j0.000000000000e+00
1.000000000000e+00+j0.000000000000e+00
1.000000000000e+00+j0.000000000000e+00
1.000000000000e+00+j0.000000000000e+00
1.000000000000e+00+j0.000000000000e+00
1.000000000000e+00+j0.000000000000e+00
1.000000000000e+00+j0.000000000000e+00
1.000000000000e+00+j0.000000000000e+00
1.000000000000e+00+j0.000000000000e+00
1.000000000000e+00+j0.000000000000e+00
1.000000000000e+00+j0.000000000000e+00
1.000000000000e+00+j0.000000000000e+00
1.000000000000e+00+j0.000000000000e+00
1.000000000000e+00+j0.000000000000e+00
1.000000000000e+00+j0.000000000000e+00
1.000000000000e+00+j0.000000000000e+00
1.000000000000e+00+j0.000000000000e+00
1.000000000000e+00+j0.000000000000e+00
1.000000000000e+00+j0.000000000000e+00
1.000000000000e+00+j0.000000000000e+00
1.000000000000e+00+j0.000000000000e+00
1.000000000000e+00+j0.000000000000e+00
1.000000000000e+00+j0.000000000000e+00
1.000000000000e+00+j0.000000000000e+00
1.000000000000e+00+j0.000000000000e+00
1.000000000000e+00+j0.000000000000e+00
1.000000000000e+00+j0.000000000000e+00
1.000000000000e+00+j0.000000000000e+00
1.000000000000e+00+j0.000000000000e+00
1.000000000000e+00+j0.000000000000e+00
1.000000000000e+00+j0.000000000000e+00
1.000000000000e+00+j0.000000000000e+00
1.000000000000e+00+j0.000000000000e+00
1.000000000000e+00+j0.000000000000e+00
1.000000000000e+00+j0.000000000000e+00
1.000000000000e+00+j0.000000000000e+00
1.000000000000e+00+j0.000000000000e+00
1.000000000000e+00+j0.000000000000e+00
1.000000000000e+00+j0.000000000000e+00
1.000000000000e+00+j0.000000000000e+00
1.000000000000e+00+j0.000000000000e+00
1.000000000000e+00+j0.000000000000e+00
1.000000000000e+00+j0.000000000000e+00
1.000000000000e+00+j0.000000000000e+00
1.000000000000e+00+j0.000000000000e+00
1.000000000000e+00+j0.000000000000e+00
1.000000000000e+00+j0.000000000000e+00
1.000000000000e+00+j0.000000000000e+00
1.000000000000e+00+j0.000000000000e+00
1.000000000000e+00+j0.000000000000e+00
1.000000000000e+00+j0.000000000000e+00
1.000000000000e+00+j0.000000000000e+00
1.000000000000e+00+j0.000000000000e+00
1.000000000000e+00+j0.000000000000e+00
1.000000000000e+00+j0.000000000000e+00
1.000000000000e+00+j0.000000000000e+00
1.000000000000e+00+j0.000000000000e+00
1.000000000000e+00+j0.000000000000e+00
1.000000000000e+00+j0.000000000000e+00
1.000000000000e+00+j0.000000000000e+00
1.000000000000e+00+j0.000000000000e+00
1.000000000000e+00+j0.000000000000e+00
1.000000000000e+00+j0.000000000000e+00
1.000000000000e+00+j0.000000000000e+00
1.000000000000e+00+j0.000000000000e+00
1.000000000000e+00+j0.000000000000e+00
1.000000000000e+00+j0.000000000000e+00
1.000000000000e+00+j0.000000000000e+00
1.000000000000e+00+j0.000000000000e+00
1.000000000000e+00+j0.000000000000e+00
1.000000000000e+00+j0.000000000000e+00
1.000000000000e+00+j0.000000000000e+00
1.000000000000e+00+j0.000000000000e+00
1.000000000000e+00+j0.000000000000e+00
1.000000000000e+00+j0.000000000000e+00
1.000000000000e+00+j0.000000000000e+00
1.000000000000e+00+j0.000000000000e+00
1.000000000000e+00+j0.000000000000e+00
1.000000000000e+00+j0.000000000000e+00
